time	V(n001)	V(n003)
0.000000000000000e+00	0.000000e+00	0.000000e+00
6.757949797179574e-07	2.123073e-03	1.091396e-05
1.351589959435915e-06	4.246145e-03	3.659057e-05
2.027384939153872e-06	6.369216e-03	7.702982e-05
2.703179918871829e-06	8.492285e-03	1.322317e-04
3.378974898589787e-06	1.061535e-02	2.021963e-04
4.054769878307744e-06	1.273842e-02	2.869234e-04
4.730564858025700e-06	1.486149e-02	3.864133e-04
8.054918988790507e-06	2.530517e-02	1.037186e-03
1.301444781000381e-05	4.088564e-02	2.500248e-03
1.954888012345292e-05	6.141308e-02	5.188920e-03
2.847283806474567e-05	8.944529e-02	9.977770e-03
3.990265494799476e-05	1.253448e-01	1.748867e-02
5.499541946970871e-05	1.727388e-01	2.894165e-02
7.438037889216931e-05	2.335878e-01	4.495109e-02
1.002126907375282e-04	3.146195e-01	6.686089e-02
1.295095657375282e-04	4.064174e-01	9.108149e-02
1.588064407375282e-04	4.980777e-01	1.137668e-01
1.881033157375282e-04	5.895692e-01	1.344832e-01
2.174001907375282e-04	6.808609e-01	1.531612e-01
2.466970657375282e-04	7.719219e-01	1.698866e-01
2.759939407375282e-04	8.627214e-01	1.848021e-01
3.052908157375283e-04	9.532285e-01	1.980648e-01
3.345876907375283e-04	1.043413e+00	2.098281e-01
3.638845657375283e-04	1.133243e+00	2.202351e-01
3.931814407375283e-04	1.222690e+00	2.294164e-01
4.224783157375284e-04	1.311722e+00	2.374900e-01
4.517751907375284e-04	1.400310e+00	2.445618e-01
4.810720657375284e-04	1.488424e+00	2.507269e-01
5.103689407375284e-04	1.576033e+00	2.560705e-01
5.396658157375285e-04	1.663108e+00	2.606687e-01
5.689626907375285e-04	1.749619e+00	2.645898e-01
5.982595657375285e-04	1.835538e+00	2.678949e-01
6.275564407375285e-04	1.920835e+00	2.706385e-01
6.568533157375286e-04	2.005481e+00	2.728697e-01
6.861501907375286e-04	2.089447e+00	2.746322e-01
7.154470657375286e-04	2.172705e+00	2.759654e-01
7.447439407375286e-04	2.255228e+00	2.769045e-01
7.740408157375287e-04	2.336986e+00	2.774808e-01
8.033376907375287e-04	2.417952e+00	2.777229e-01
8.326345657375287e-04	2.498099e+00	2.776560e-01
8.619314407375287e-04	2.577399e+00	2.773030e-01
8.912283157375288e-04	2.655826e+00	2.766843e-01
9.205251907375288e-04	2.733353e+00	2.758182e-01
9.498220657375288e-04	2.809955e+00	2.747215e-01
1.008415815737529e-03	2.960275e+00	2.718942e-01
1.067009565737529e-03	3.106583e+00	2.683048e-01
1.125603315737529e-03	3.248681e+00	2.640373e-01
1.213493940737529e-03	3.453515e+00	2.565119e-01
1.293014030023244e-03	3.630733e+00	2.485072e-01
1.372534119308958e-03	3.797921e+00	2.398151e-01
1.452054208594672e-03	3.955077e+00	2.304357e-01
1.531574297880387e-03	4.102202e+00	2.203689e-01
1.611094387166101e-03	4.239297e+00	2.096148e-01
1.690614476451816e-03	4.366360e+00	1.981733e-01
1.770134565737530e-03	4.483392e+00	1.860445e-01
1.866395726451815e-03	4.609732e+00	1.706979e-01
1.962656887166100e-03	4.718412e+00	1.548588e-01
2.058918047880386e-03	4.809431e+00	1.385270e-01
2.155179208594671e-03	4.882789e+00	1.217026e-01
2.251440369308956e-03	4.938487e+00	1.043856e-01
2.347701530023242e-03	4.976524e+00	8.657602e-02
2.443962690737527e-03	4.996901e+00	6.827381e-02
2.485815369308955e-03	4.999791e+00	6.029302e-02
2.527668047880383e-03	4.999232e+00	5.228396e-02
2.569520726451812e-03	4.995224e+00	4.424662e-02
2.611373405023240e-03	4.987766e+00	3.618101e-02
2.653226083594668e-03	4.976859e+00	2.808712e-02
2.695078762166097e-03	4.962503e+00	1.996496e-02
2.736931440737525e-03	4.944698e+00	1.181452e-02
2.770413583594668e-03	4.927979e+00	5.291901e-03
2.803895726451810e-03	4.909103e+00	-1.225966e-03
2.837377869308953e-03	4.888069e+00	-7.739083e-03
2.870860012166095e-03	4.864879e+00	-1.424745e-02
2.904342155023238e-03	4.839531e+00	-2.075106e-02
2.937824297880381e-03	4.812026e+00	-2.724993e-02
2.971306440737523e-03	4.782364e+00	-3.374404e-02
3.059197065737523e-03	4.693597e+00	-5.081930e-02
3.147087690737522e-03	4.591420e+00	-6.761430e-02
3.234978315737522e-03	4.475833e+00	-8.412904e-02
3.322868940737521e-03	4.346835e+00	-1.003635e-01
3.410759565737520e-03	4.204427e+00	-1.163178e-01
3.498650190737520e-03	4.048609e+00	-1.319918e-01
3.586540815737519e-03	3.879380e+00	-1.473855e-01
3.707913583594662e-03	3.623406e+00	-1.679802e-01
3.829286351451806e-03	3.350622e+00	-1.873385e-01
3.950659119308949e-03	3.061029e+00	-2.054603e-01
4.072031887166093e-03	2.754626e+00	-2.223456e-01
4.193404655023236e-03	2.431414e+00	-2.379945e-01
4.314777422880379e-03	2.091393e+00	-2.524068e-01
4.436150190737522e-03	1.734563e+00	-2.655827e-01
4.503114476451808e-03	1.534870e+00	-2.720870e-01
4.570078762166094e-03	1.333362e+00	-2.780858e-01
4.637043047880381e-03	1.130038e+00	-2.835791e-01
4.704007333594667e-03	9.248989e-01	-2.885669e-01
4.770971619308954e-03	7.179439e-01	-2.930492e-01
4.837935905023239e-03	5.091733e-01	-2.970260e-01
4.904900190737526e-03	2.985871e-01	-3.004973e-01
4.934197065737526e-03	2.065892e-01	-3.018407e-01
4.963493940737526e-03	1.145992e-01	-3.030809e-01
4.992790815737527e-03	2.261706e-02	-3.042179e-01
5.022087690737527e-03	-6.935712e-02	-3.052517e-01
5.051384565737527e-03	-1.613234e-01	-3.061823e-01
5.080681440737527e-03	-2.532817e-01	-3.070096e-01
5.109978315737528e-03	-3.452322e-01	-3.077337e-01
5.160201530023242e-03	-5.028256e-01	-3.087314e-01
5.210424744308957e-03	-6.595309e-01	-3.094209e-01
5.260647958594672e-03	-8.153481e-01	-3.098022e-01
5.310871172880386e-03	-9.702772e-01	-3.098753e-01
5.361094387166102e-03	-1.124318e+00	-3.096402e-01
5.411317601451816e-03	-1.277471e+00	-3.090968e-01
5.461540815737530e-03	-1.429735e+00	-3.082452e-01
5.570357780023245e-03	-1.757220e+00	-3.052736e-01
5.679174744308961e-03	-2.072966e+00	-3.009447e-01
5.787991708594676e-03	-2.376975e+00	-2.952587e-01
5.896808672880391e-03	-2.669247e+00	-2.882155e-01
6.005625637166107e-03	-2.949781e+00	-2.798152e-01
6.114442601451822e-03	-3.218577e+00	-2.700576e-01
6.223259565737537e-03	-3.475635e+00	-2.589429e-01
6.348817601451824e-03	-3.751350e+00	-2.444448e-01
6.474375637166111e-03	-4.000348e+00	-2.286940e-01
6.599933672880397e-03	-4.222631e+00	-2.116907e-01
6.725491708594684e-03	-4.418198e+00	-1.934349e-01
6.851049744308971e-03	-4.587049e+00	-1.739264e-01
6.976607780023257e-03	-4.729184e+00	-1.531654e-01
7.102165815737544e-03	-4.844604e+00	-1.311518e-01
7.177500637166116e-03	-4.897841e+00	-1.176416e-01
7.252835458594688e-03	-4.939944e+00	-1.039458e-01
7.328170280023260e-03	-4.970914e+00	-9.006432e-02
7.403505101451833e-03	-4.990750e+00	-7.599728e-02
7.478839922880404e-03	-4.999452e+00	-6.174464e-02
7.554174744308977e-03	-4.997020e+00	-4.730640e-02
7.629509565737548e-03	-4.983455e+00	-3.268256e-02
7.667176976451834e-03	-4.972416e+00	-2.537062e-02
7.704844387166120e-03	-4.958616e+00	-1.805471e-02
7.742511797880406e-03	-4.942055e+00	-1.073484e-02
7.780179208594691e-03	-4.922733e+00	-3.411018e-03
7.817846619308977e-03	-4.900649e+00	3.916767e-03
7.855514030023263e-03	-4.875804e+00	1.124851e-02
7.893181440737548e-03	-4.848198e+00	1.858422e-02
7.972701530023260e-03	-4.780478e+00	3.410413e-02
8.052221619308974e-03	-4.701404e+00	4.944453e-02
8.131741708594686e-03	-4.610975e+00	6.460542e-02
8.211261797880398e-03	-4.509192e+00	7.958679e-02
8.290781887166112e-03	-4.396054e+00	9.438865e-02
8.370301976451824e-03	-4.271563e+00	1.090110e-01
8.449822065737536e-03	-4.135717e+00	1.234538e-01
8.579565369308963e-03	-3.888129e+00	1.465191e-01
8.709308672880388e-03	-3.619588e+00	1.682757e-01
8.839051976451814e-03	-3.330093e+00	1.887235e-01
8.968795280023239e-03	-3.019644e+00	2.078627e-01
9.098538583594665e-03	-2.688242e+00	2.256932e-01
9.228281887166092e-03	-2.335886e+00	2.422149e-01
9.358025190737517e-03	-1.962576e+00	2.574280e-01
9.433360012166086e-03	-1.741503e+00	2.653377e-01
9.508694833594657e-03	-1.517798e+00	2.726164e-01
9.584029655023226e-03	-1.291463e+00	2.792642e-01
9.659364476451797e-03	-1.062497e+00	2.852810e-01
9.734699297880366e-03	-8.308998e-01	2.906669e-01
9.810034119308936e-03	-5.966718e-01	2.954217e-01
9.885368940737506e-03	-3.598128e-01	2.995456e-01
1.000255644073750e-02	8.031292e-03	3.045739e-01
1.020763456573750e-02	6.504545e-01	3.093904e-01
1.028296938716607e-02	8.855720e-01	3.098658e-01
1.035830420859464e-02	1.117429e+00	3.096528e-01
1.043363903002321e-02	1.346025e+00	3.087514e-01
1.050897385145178e-02	1.571361e+00	3.071617e-01
1.058430867288035e-02	1.793436e+00	3.048836e-01
1.065964349430892e-02	2.012250e+00	3.019170e-01
1.073497831573749e-02	2.227804e+00	2.982621e-01
1.086472161930891e-02	2.590012e+00	2.902165e-01
1.099446492288034e-02	2.929816e+00	2.804397e-01
1.112420822645177e-02	3.247215e+00	2.689317e-01
1.125395153002319e-02	3.542210e+00	2.556924e-01
1.138369483359462e-02	3.814800e+00	2.407219e-01
1.151343813716604e-02	4.064986e+00	2.240202e-01
1.164318144073747e-02	4.292767e+00	2.055872e-01
1.174781313716604e-02	4.453083e+00	1.897207e-01
1.185244483359461e-02	4.592911e+00	1.732209e-01
1.195707653002318e-02	4.712251e+00	1.560876e-01
1.206170822645175e-02	4.811104e+00	1.383210e-01
1.216633992288031e-02	4.889469e+00	1.199210e-01
1.227097161930888e-02	4.947346e+00	1.008877e-01
1.237560331573745e-02	4.984735e+00	8.122095e-02
1.242164126216602e-02	4.993938e+00	7.251918e-02
1.246767920859459e-02	4.998963e+00	6.377513e-02
1.251371715502316e-02	4.999809e+00	5.498879e-02
1.255975510145173e-02	4.996476e+00	4.616018e-02
1.260579304788030e-02	4.988965e+00	3.728929e-02
1.265183099430888e-02	4.977276e+00	2.837611e-02
1.269786894073745e-02	4.961408e+00	1.942066e-02
1.273972161930887e-02	4.943344e+00	1.126780e-02
1.278157429788030e-02	4.921905e+00	3.121220e-03
1.282342697645173e-02	4.897092e+00	-5.019080e-03
1.286527965502316e-02	4.868905e+00	-1.315310e-02
1.290713233359458e-02	4.837344e+00	-2.128084e-02
1.294898501216601e-02	4.802408e+00	-2.940231e-02
1.299083769073744e-02	4.764099e+00	-3.751749e-02
1.308291358359458e-02	4.667250e+00	-5.538378e-02
1.317498947645172e-02	4.555859e+00	-7.292131e-02
1.326706536930886e-02	4.429928e+00	-9.013007e-02
1.335914126216600e-02	4.289456e+00	-1.070101e-01
1.345121715502314e-02	4.134443e+00	-1.235613e-01
1.354329304788028e-02	3.964889e+00	-1.397838e-01
1.363536894073743e-02	3.780793e+00	-1.556775e-01
1.375674170859457e-02	3.516051e+00	-1.758869e-01
1.387811447645171e-02	3.235228e+00	-1.948208e-01
1.399948724430885e-02	2.938324e+00	-2.124790e-01
1.412086001216599e-02	2.625338e+00	-2.288616e-01
1.424223278002313e-02	2.296272e+00	-2.439685e-01
1.436360554788027e-02	1.951126e+00	-2.577999e-01
1.448497831573741e-02	1.589898e+00	-2.703556e-01
1.454775733359455e-02	1.400970e+00	-2.761358e-01
1.461053635145169e-02	1.210609e+00	-2.814678e-01
1.467331536930883e-02	1.018815e+00	-2.863515e-01
1.473609438716597e-02	8.255895e-01	-2.907869e-01
1.479887340502311e-02	6.309310e-01	-2.947741e-01
1.486165242288026e-02	4.348400e-01	-2.983130e-01
1.492443144073740e-02	2.373164e-01	-3.014036e-01
1.510021269073739e-02	-3.146195e-01	-3.075042e-01
1.514625063716596e-02	-4.591125e-01	-3.084854e-01
1.519228858359454e-02	-6.029222e-01	-3.092076e-01
1.523832653002311e-02	-7.460487e-01	-3.096708e-01
1.528436447645168e-02	-8.884920e-01	-3.098751e-01
1.533040242288025e-02	-1.030252e+00	-3.098203e-01
1.537644036930882e-02	-1.171329e+00	-3.095067e-01
1.542247831573739e-02	-1.311722e+00	-3.089340e-01
1.552711001216596e-02	-1.629019e+00	-3.066115e-01
1.563174170859453e-02	-1.936091e+00	-3.030194e-01
1.573637340502311e-02	-2.232940e+00	-2.981575e-01
1.584100510145168e-02	-2.519564e+00	-2.920260e-01
1.594563679788026e-02	-2.795964e+00	-2.846249e-01
1.605026849430883e-02	-3.062140e+00	-2.759540e-01
1.615490019073740e-02	-3.318091e+00	-2.660135e-01
1.628464349430884e-02	-3.615432e+00	-2.518908e-01
1.641438679788027e-02	-3.884836e+00	-2.363799e-01
1.654413010145171e-02	-4.126302e+00	-2.194809e-01
1.667387340502314e-02	-4.339830e+00	-2.011936e-01
1.680361670859457e-02	-4.525421e+00	-1.815181e-01
1.693336001216601e-02	-4.683075e+00	-1.604545e-01
1.706310331573744e-02	-4.812790e+00	-1.380026e-01
1.713843813716601e-02	-4.871703e+00	-1.246416e-01
1.721377295859459e-02	-4.919509e+00	-1.110787e-01
1.728910778002316e-02	-4.956207e+00	-9.731385e-02
1.736444260145174e-02	-4.981798e+00	-8.334709e-02
1.743977742288031e-02	-4.996282e+00	-6.917841e-02
1.751511224430888e-02	-4.999659e+00	-5.480781e-02
1.759044706573746e-02	-4.991928e+00	-4.023530e-02
1.762392920859460e-02	-4.984835e+00	-3.375564e-02
1.765741135145175e-02	-4.975550e+00	-2.726824e-02
1.769089349430889e-02	-4.964071e+00	-2.077308e-02
1.772437563716604e-02	-4.950400e+00	-1.427018e-02
1.775785778002318e-02	-4.934535e+00	-7.759520e-03
1.779133992288032e-02	-4.916478e+00	-1.241111e-03
1.782482206573747e-02	-4.896227e+00	5.285049e-03
1.788760108359461e-02	-4.852212e+00	1.754656e-02
1.795038010145176e-02	-4.800881e+00	2.973372e-02
1.801315911930890e-02	-4.742234e+00	4.184652e-02
1.807593813716605e-02	-4.676272e+00	5.388497e-02
1.813871715502319e-02	-4.602995e+00	6.584906e-02
1.820149617288034e-02	-4.522402e+00	7.773880e-02
1.826427519073748e-02	-4.434494e+00	8.955418e-02
1.838146269073749e-02	-4.249339e+00	1.114030e-01
1.849865019073749e-02	-4.044255e+00	1.323780e-01
1.861583769073750e-02	-3.819241e+00	1.524791e-01
1.873302519073750e-02	-3.574298e+00	1.717064e-01
1.885021269073751e-02	-3.309424e+00	1.900598e-01
1.896740019073751e-02	-3.024622e+00	2.075394e-01
1.908458769073752e-02	-2.719889e+00	2.241451e-01
1.918084885145181e-02	-2.458766e+00	2.367629e-01
1.927711001216609e-02	-2.191168e+00	2.484187e-01
1.937337117288038e-02	-1.917094e+00	2.591125e-01
1.946963233359467e-02	-1.636546e+00	2.688443e-01
1.956589349430896e-02	-1.349522e+00	2.776141e-01
1.966215465502325e-02	-1.056022e+00	2.854219e-01
1.975841581573754e-02	-7.560480e-01	2.922676e-01
1.979189795859469e-02	-6.517947e-01	2.943716e-01
1.982538010145183e-02	-5.473687e-01	2.963433e-01
1.985886224430897e-02	-4.427700e-01	2.981828e-01
1.989234438716612e-02	-3.379986e-01	2.998899e-01
1.992582653002326e-02	-2.330545e-01	3.014647e-01
1.995930867288041e-02	-1.279377e-01	3.029073e-01
1.999279081573755e-02	-2.264824e-02	3.042176e-01
2.003045822645184e-02	9.584676e-02	3.055299e-01
2.006812563716612e-02	2.141228e-01	3.066697e-01
2.010579304788041e-02	3.321799e-01	3.076371e-01
2.014346045859470e-02	4.500181e-01	3.084321e-01
2.018112786930899e-02	5.676373e-01	3.090546e-01
2.021879528002327e-02	6.850376e-01	3.095047e-01
2.025646269073756e-02	8.022190e-01	3.097823e-01
2.034016804788042e-02	1.062273e+00	3.097607e-01
2.042387340502328e-02	1.317662e+00	3.088954e-01
2.050757876216614e-02	1.568385e+00	3.071863e-01
2.059128411930900e-02	1.814443e+00	3.046334e-01
2.067498947645186e-02	2.055837e+00	3.012368e-01
2.075869483359472e-02	2.292565e+00	2.969965e-01
2.084240019073758e-02	2.524627e+00	2.919124e-01
2.098051403002330e-02	2.894873e+00	2.815130e-01
2.111862786930902e-02	3.237500e+00	2.692665e-01
2.125674170859474e-02	3.552509e+00	2.551729e-01
2.139485554788046e-02	3.839900e+00	2.392321e-01
2.153296938716618e-02	4.099672e+00	2.214443e-01
2.167108322645190e-02	4.331826e+00	2.018093e-01
2.180919706573762e-02	4.536362e+00	1.803272e-01
2.190127295859477e-02	4.650968e+00	1.653187e-01
2.199334885145191e-02	4.749350e+00	1.498904e-01
2.208542474430906e-02	4.831507e+00	1.340420e-01
2.217750063716620e-02	4.897439e+00	1.177738e-01
2.226957653002335e-02	4.947146e+00	1.010855e-01
2.236165242288050e-02	4.980629e+00	8.397739e-02
2.245372831573764e-02	4.997887e+00	6.644928e-02
2.249139572645193e-02	4.999920e+00	5.925766e-02
2.252906313716622e-02	4.999158e+00	5.204299e-02
2.256673054788050e-02	4.995601e+00	4.480527e-02
2.260439795859479e-02	4.989249e+00	3.754450e-02
2.264206536930908e-02	4.980103e+00	3.026068e-02
2.267973278002337e-02	4.968162e+00	2.295381e-02
2.271740019073765e-02	4.953426e+00	1.562389e-02
2.275925286930908e-02	4.933762e+00	7.466693e-03
2.280110554788051e-02	4.910734e+00	-6.815972e-04
2.284295822645194e-02	4.884340e+00	-8.820982e-03
2.288481090502337e-02	4.854581e+00	-1.695146e-02
2.292666358359480e-02	4.821458e+00	-2.507304e-02
2.296851626216623e-02	4.784969e+00	-3.318571e-02
2.301036894073766e-02	4.745115e+00	-4.128947e-02
2.310244483359481e-02	4.644898e+00	-5.912095e-02
2.319452072645196e-02	4.530241e+00	-7.661166e-02
2.328659661930910e-02	4.401144e+00	-9.376161e-02
2.337867251216625e-02	4.257608e+00	-1.105708e-01
2.347074840502340e-02	4.099631e+00	-1.270392e-01
2.356282429788054e-02	3.927214e+00	-1.431669e-01
2.365490019073769e-02	3.740357e+00	-1.589538e-01
2.377208769073769e-02	3.482087e+00	-1.783148e-01
2.388927519073770e-02	3.208888e+00	-1.964825e-01
2.400646269073770e-02	2.920760e+00	-2.134568e-01
2.412365019073771e-02	2.617702e+00	-2.292379e-01
2.424083769073771e-02	2.299716e+00	-2.438256e-01
2.435802519073772e-02	1.966800e+00	-2.572201e-01
2.447521269073772e-02	1.618955e+00	-2.694212e-01
2.454217697645201e-02	1.417629e+00	-2.756446e-01
2.460914126216630e-02	1.214699e+00	-2.813576e-01
2.467610554788058e-02	1.010167e+00	-2.865600e-01
2.474306983359487e-02	8.040323e-01	-2.912519e-01
2.481003411930916e-02	5.962944e-01	-2.954333e-01
2.487699840502345e-02	3.869537e-01	-2.991042e-01
2.494396269073774e-02	1.760100e-01	-3.022646e-01
2.496488903002345e-02	1.102670e-01	-3.031369e-01
2.498581536930917e-02	4.453333e-02	-3.039564e-01
2.500674170859488e-02	-2.119100e-02	-3.047232e-01
2.502766804788060e-02	-8.690599e-02	-3.054373e-01
2.504859438716631e-02	-1.526116e-01	-3.060986e-01
2.506952072645203e-02	-2.183079e-01	-3.067072e-01
2.509044706573774e-02	-2.839949e-01	-3.072631e-01
2.512811447645203e-02	-4.022132e-01	-3.081298e-01
2.516578188716632e-02	-5.200419e-01	-3.088232e-01
2.520344929788060e-02	-6.374810e-01	-3.093434e-01
2.524111670859489e-02	-7.545304e-01	-3.096903e-01
2.527878411930918e-02	-8.711902e-01	-3.098639e-01
2.531645153002347e-02	-9.874604e-01	-3.098643e-01
2.535411894073775e-02	-1.103341e+00	-3.096914e-01
2.545038010145204e-02	-1.398634e+00	-3.084237e-01
2.554664126216633e-02	-1.686266e+00	-3.060615e-01
2.564290242288062e-02	-1.966236e+00	-3.026049e-01
2.573916358359491e-02	-2.238545e+00	-2.980537e-01
2.583542474430920e-02	-2.503191e+00	-2.924081e-01
2.593168590502349e-02	-2.760176e+00	-2.856680e-01
2.602794706573778e-02	-3.009500e+00	-2.778335e-01
2.616606090502350e-02	-3.349218e+00	-2.645592e-01
2.630417474430922e-02	-3.658585e+00	-2.496124e-01
2.644228858359494e-02	-3.937601e+00	-2.329929e-01
2.658040242288066e-02	-4.186266e+00	-2.147008e-01
2.671851626216638e-02	-4.404580e+00	-1.947362e-01
2.685663010145210e-02	-4.592542e+00	-1.730989e-01
2.699474394073782e-02	-4.750154e+00	-1.497891e-01
2.707426403002353e-02	-4.822432e+00	-1.359631e-01
2.715378411930925e-02	-4.882391e+00	-1.218874e-01
2.723330420859497e-02	-4.930030e+00	-1.075620e-01
2.731282429788068e-02	-4.965350e+00	-9.298696e-02
2.739234438716640e-02	-4.988351e+00	-7.816225e-02
2.747186447645212e-02	-4.999032e+00	-6.308786e-02
2.755138456573784e-02	-4.997394e+00	-4.776379e-02
2.759323724430927e-02	-4.991397e+00	-3.968252e-02
2.763508992288070e-02	-4.981972e+00	-3.158784e-02
2.767694260145213e-02	-4.969118e+00	-2.347973e-02
2.771879528002356e-02	-4.952836e+00	-1.535821e-02
2.776064795859499e-02	-4.933127e+00	-7.223265e-03
2.780250063716642e-02	-4.909989e+00	9.250974e-04
2.784435331573785e-02	-4.883423e+00	9.086879e-03
2.791131760145214e-02	-4.833637e+00	2.216473e-02
2.797828188716642e-02	-4.775596e+00	3.514640e-02
2.804524617288071e-02	-4.709299e+00	4.803190e-02
2.811221045859500e-02	-4.634746e+00	6.082122e-02
2.817917474430929e-02	-4.551937e+00	7.351437e-02
2.824613903002358e-02	-4.460873e+00	8.611134e-02
2.831310331573787e-02	-4.361554e+00	9.861214e-02
2.843447608359501e-02	-4.158884e+00	1.209979e-01
2.855584885145216e-02	-3.935638e+00	1.423866e-01
2.867722161930931e-02	-3.691814e+00	1.627783e-01
2.879859438716646e-02	-3.427414e+00	1.821729e-01
2.891996715502360e-02	-3.142436e+00	2.005705e-01
